! Infineon Technologies  Discrete & RF Semiconductors
! BFP450
! VCE =  1.0 V,  IC = 0.16 A
! Common Emitter S-Parameters:                            Nov 2015
# GHz  S  MA  R  50
!  f         S11            S21            S12            S22
! GHz     MAG   ANG      MAG   ANG      MAG   ANG      MAG   ANG
 1.200  0.8208  162.3   3.591   68.5  0.0508   60.6  0.6247  168.5
 1.220  0.8208  162.0   3.533   68.1  0.0515   60.4  0.6251  168.1
 1.240  0.8208  161.6   3.476   67.7  0.0523   60.3  0.6255  167.7
 1.260  0.8208  161.3   3.419   67.3  0.0530   60.1  0.6260  167.4
 1.280  0.8209  160.9   3.362   66.9  0.0538   60.0  0.6265  167.0
 1.300  0.8210  160.6   3.305   66.5  0.0545   59.8  0.6270  166.6
 1.320  0.8213  160.3   3.255   66.1  0.0552   59.6  0.6275  166.2
 1.340  0.8216  160.0   3.204   65.8  0.0560   59.5  0.6281  165.8
 1.360  0.8219  159.6   3.154   65.4  0.0567   59.3  0.6287  165.5
 1.380  0.8223  159.3   3.104   65.0  0.0575   59.2  0.6293  165.1
 1.400  0.8227  159.0   3.054   64.6  0.0582   59.0  0.6299  164.7
 1.420  0.8230  158.7   3.012   64.2  0.0589   58.8  0.6304  164.3
 1.440  0.8233  158.4   2.969   63.9  0.0597   58.6  0.6309  163.9
 1.460  0.8236  158.0   2.927   63.5  0.0604   58.4  0.6315  163.6
 1.480  0.8240  157.7   2.885   63.1  0.0612   58.2  0.6321  163.2
 1.500  0.8244  157.4   2.843   62.7  0.0619   58.0  0.6327  162.8
 1.520  0.8245  157.1   2.806   62.4  0.0626   57.8  0.6332  162.5
 1.540  0.8246  156.8   2.769   62.0  0.0634   57.6  0.6336  162.1
 1.560  0.8247  156.4   2.733   61.6  0.0641   57.4  0.6341  161.8
 1.580  0.8248  156.1   2.696   61.3  0.0649   57.2  0.6347  161.4
 1.600  0.8250  155.8   2.660   60.9  0.0656   57.0  0.6352  161.1
 1.620  0.8252  155.5   2.627   60.6  0.0663   56.8  0.6357  160.7
 1.640  0.8255  155.2   2.595   60.2  0.0670   56.5  0.6363  160.4
 1.660  0.8258  154.8   2.562   59.8  0.0678   56.3  0.6369  160.0
 1.680  0.8261  154.5   2.530   59.5  0.0685   56.1  0.6375  159.7
 1.700  0.8265  154.2   2.498   59.1  0.0692   55.9  0.6381  159.3
 1.720  0.8265  153.9   2.468   58.7  0.0699   55.7  0.6385  159.0
 1.740  0.8266  153.6   2.439   58.4  0.0706   55.4  0.6389  158.6
 1.760  0.8267  153.2   2.409   58.0  0.0714   55.2  0.6393  158.3
 1.780  0.8268  152.9   2.380   57.6  0.0721   55.0  0.6397  157.9
 1.800  0.8270  152.6   2.351   57.2  0.0728   54.8  0.6402  157.6
 1.820  0.8272  152.3   2.325   56.9  0.0735   54.6  0.6408  157.3
 1.840  0.8275  152.0   2.299   56.5  0.0742   54.3  0.6414  156.9
 1.860  0.8278  151.7   2.273   56.2  0.0749   54.1  0.6420  156.6
 1.880  0.8281  151.4   2.247   55.9  0.0756   53.9  0.6426  156.2
 1.900  0.8284  151.1   2.221   55.5  0.0763   53.7  0.6433  155.9
 1.920  0.8284  150.8   2.198   55.2  0.0770   53.4  0.6436  155.6
 1.940  0.8285  150.5   2.176   54.8  0.0777   53.2  0.6440  155.2
 1.960  0.8286  150.1   2.153   54.4  0.0784   52.9  0.6444  154.9
 1.980  0.8287  149.8   2.130   54.1  0.0791   52.7  0.6448  154.5
 2.000  0.8288  149.5   2.108   53.7  0.0798   52.4  0.6452  154.2
 2.020  0.8287  149.2   2.088   53.4  0.0805   52.1  0.6456  153.9
 2.040  0.8286  148.9   2.067   53.0  0.0811   51.9  0.6460  153.5
 2.060  0.8286  148.5   2.047   52.7  0.0818   51.6  0.6464  153.2
 2.080  0.8285  148.2   2.027   52.3  0.0825   51.4  0.6468  152.8
 2.100  0.8285  147.9   2.006   51.9  0.0831   51.2  0.6473  152.5
 2.120  0.8285  147.6   1.986   51.6  0.0838   50.9  0.6477  152.2
 2.140  0.8286  147.3   1.966   51.2  0.0845   50.7  0.6483  151.8
 2.160  0.8287  146.9   1.947   50.8  0.0851   50.4  0.6488  151.5
 2.180  0.8288  146.6   1.927   50.4  0.0858   50.2  0.6493  151.1
 2.200  0.8289  146.3   1.907   50.0  0.0865   50.0  0.6499  150.8
 2.220  0.8289  146.0   1.890   49.7  0.0871   49.7  0.6503  150.5
 2.240  0.8289  145.7   1.873   49.4  0.0878   49.5  0.6507  150.1
 2.260  0.8290  145.4   1.857   49.1  0.0884   49.2  0.6512  149.8
 2.280  0.8290  145.1   1.840   48.8  0.0891   49.0  0.6517  149.5
 2.300  0.8291  144.8   1.823   48.4  0.0897   48.8  0.6522  149.1
 2.320  0.8292  144.5   1.807   48.1  0.0904   48.5  0.6527  148.8
 2.340  0.8294  144.2   1.790   47.8  0.0910   48.3  0.6532  148.5
 2.360  0.8295  143.9   1.774   47.4  0.0917   48.1  0.6538  148.2
 2.380  0.8297  143.6   1.757   47.1  0.0923   47.8  0.6544  147.8
 2.400  0.8299  143.3   1.741   46.7  0.0930   47.6  0.6550  147.5
 2.420  0.8297  143.0   1.726   46.4  0.0936   47.3  0.6554  147.2
 2.440  0.8296  142.7   1.712   46.1  0.0942   47.1  0.6558  146.8
 2.460  0.8294  142.4   1.697   45.7  0.0949   46.8  0.6563  146.5
 2.480  0.8293  142.1   1.683   45.4  0.0955   46.6  0.6567  146.2
 2.500  0.8292  141.9   1.669   45.1  0.0961   46.4  0.6572  145.8
 2.520  0.8291  141.6   1.654   44.7  0.0968   46.1  0.6577  145.5
 2.540  0.8290  141.3   1.640   44.4  0.0974   45.9  0.6583  145.2
 2.560  0.8290  141.0   1.626   44.0  0.0980   45.7  0.6588  144.9
 2.580  0.8290  140.7   1.612   43.7  0.0987   45.4  0.6594  144.5
 2.600  0.8290  140.4   1.598   43.3  0.0993   45.2  0.6600  144.2
 2.620  0.8291  140.1   1.586   43.0  0.0999   44.9  0.6604  143.9
 2.640  0.8292  139.8   1.575   42.7  0.1005   44.7  0.6609  143.6
 2.660  0.8294  139.5   1.563   42.4  0.1011   44.4  0.6614  143.3
 2.680  0.8296  139.2   1.551   42.0  0.1018   44.2  0.6619  143.0
 2.700  0.8298  138.9   1.540   41.7  0.1024   43.9  0.6624  142.6
 2.720  0.8300  138.7   1.528   41.4  0.1030   43.7  0.6629  142.3
 2.740  0.8302  138.4   1.517   41.0  0.1036   43.4  0.6635  142.0
 2.760  0.8305  138.1   1.506   40.7  0.1042   43.2  0.6641  141.7
 2.780  0.8308  137.8   1.494   40.4  0.1049   42.9  0.6647  141.4
 2.800  0.8311  137.5   1.483   40.0  0.1055   42.7  0.6653  141.1
 2.820  0.8312  137.2   1.473   39.7  0.1061   42.4  0.6657  140.8
 2.840  0.8314  136.9   1.462   39.4  0.1067   42.2  0.6661  140.5
 2.860  0.8315  136.6   1.452   39.1  0.1073   41.9  0.6666  140.2
 2.880  0.8317  136.3   1.442   38.7  0.1079   41.7  0.6670  139.9
 2.900  0.8319  136.0   1.432   38.4  0.1085   41.4  0.6675  139.6
 2.920  0.8322  135.8   1.422   38.1  0.1091   41.2  0.6680  139.3
 2.940  0.8324  135.5   1.412   37.7  0.1097   40.9  0.6685  139.0
 2.960  0.8327  135.2   1.402   37.4  0.1103   40.7  0.6691  138.7
 2.980  0.8330  134.9   1.392   37.1  0.1109   40.4  0.6696  138.4
 3.000  0.8333  134.6   1.382   36.7  0.1115   40.2  0.6702  138.1
 3.100  0.8337  133.1   1.337   35.3  0.1140   38.8  0.6717  136.7
 3.200  0.8347  131.7   1.293   33.7  0.1165   37.4  0.6735  135.3
 3.300  0.8362  130.2   1.250   32.1  0.1191   36.1  0.6758  133.9
 3.400  0.8383  128.7   1.209   30.4  0.1218   34.9  0.6785  132.6
 3.500  0.8409  127.3   1.168   28.5  0.1245   33.7  0.6815  131.2
 3.600  0.8420  126.0   1.135   27.2  0.1266   32.5  0.6837  130.0
 3.700  0.8435  124.7   1.102   25.8  0.1288   31.3  0.6863  128.8
 3.800  0.8454  123.4   1.070   24.3  0.1310   30.1  0.6891  127.6
 3.900  0.8478  122.1   1.038   22.7  0.1333   29.0  0.6923  126.4
 4.000  0.8506  120.8   1.008   21.0  0.1356   27.9  0.6957  125.2
 4.100  0.8513  119.7   0.982   19.8  0.1375   26.8  0.6980  124.1
 4.200  0.8522  118.6   0.957   18.6  0.1394   25.7  0.7006  123.0
 4.300  0.8535  117.6   0.933   17.3  0.1414   24.7  0.7035  121.9
 4.400  0.8550  116.5   0.909   15.9  0.1434   23.7  0.7066  120.8
 4.500  0.8569  115.4   0.885   14.5  0.1455   22.7  0.7100  119.7
 4.600  0.8568  114.4   0.866   13.3  0.1474   21.6  0.7118  118.6
 4.700  0.8570  113.3   0.847   12.1  0.1494   20.6  0.7139  117.6
 4.800  0.8574  112.3   0.829   10.8  0.1515   19.6  0.7161  116.6
 4.900  0.8582  111.2   0.811    9.5  0.1536   18.6  0.7187  115.5
 5.000  0.8592  110.2   0.794    8.1  0.1557   17.6  0.7214  114.5
 5.100  0.8580  109.2   0.779    7.0  0.1575   16.5  0.7221  113.4
 5.200  0.8571  108.2   0.764    5.8  0.1593   15.4  0.7230  112.3
 5.300  0.8564  107.2   0.750    4.6  0.1612   14.3  0.7242  111.2
 5.400  0.8560  106.2   0.736    3.4  0.1631   13.3  0.7257  110.2
 5.500  0.8559  105.2   0.722    2.1  0.1651   12.3  0.7274  109.1
 5.600  0.8552  104.4   0.711    1.0  0.1669   11.3  0.7279  108.0
 5.700  0.8547  103.5   0.700   -0.1  0.1687   10.3  0.7288  106.9
 5.800  0.8543  102.7   0.689   -1.2  0.1705    9.3  0.7298  105.8
 5.900  0.8542  101.8   0.679   -2.4  0.1724    8.3  0.7312  104.7
 6.000  0.8542  101.0   0.669   -3.6  0.1744    7.4  0.7328  103.6
 6.100  0.8550  100.2   0.661   -4.8  0.1761    6.3  0.7335  102.6
 6.200  0.8559   99.3   0.652   -6.0  0.1778    5.1  0.7345  101.6
 6.300  0.8570   98.5   0.645   -7.2  0.1796    4.0  0.7356  100.5
 6.400  0.8583   97.6   0.637   -8.5  0.1815    3.0  0.7371   99.5
 6.500  0.8598   96.8   0.630   -9.8  0.1834    1.9  0.7387   98.5
 6.600  0.8607   95.8   0.622  -11.1  0.1849    0.7  0.7395   97.6
 6.800  0.8632   93.8   0.607  -13.7  0.1883   -1.6  0.7416   95.9
 7.000  0.8667   91.8   0.593  -16.4  0.1919   -3.8  0.7444   94.2
 7.200  0.8680   89.6   0.577  -19.0  0.1941   -6.3  0.7472   92.3
 7.400  0.8706   87.3   0.562  -21.7  0.1966   -8.7  0.7509   90.4
 7.600  0.8721   85.0   0.547  -24.2  0.1985  -11.1  0.7560   88.2
 7.800  0.8727   82.7   0.531  -26.6  0.1999  -13.5  0.7630   85.8
 8.000  0.8747   80.3   0.516  -29.1  0.2016  -15.8  0.7713   83.4
 8.200  0.8755   77.9   0.500  -31.3  0.2012  -18.2  0.7780   80.8
 8.400  0.8779   75.4   0.484  -33.7  0.2011  -20.5  0.7862   78.3
 8.600  0.8799   73.0   0.470  -35.9  0.2004  -22.7  0.7922   75.9
 8.800  0.8814   70.7   0.455  -37.9  0.1990  -24.9  0.7961   73.6
 9.000  0.8843   68.4   0.441  -40.0  0.1979  -27.0  0.8013   71.3
 9.200  0.8870   66.6   0.426  -41.6  0.1958  -28.5  0.8046   69.4
 9.400  0.8904   64.9   0.411  -43.3  0.1939  -30.1  0.8087   67.6
 9.600  0.8946   63.5   0.399  -44.7  0.1922  -31.5  0.8157   66.1
 9.800  0.8990   62.6   0.389  -45.8  0.1907  -32.7  0.8252   64.8
10.000  0.9037   61.6   0.379  -47.0  0.1892  -34.0  0.8350   63.6
10.200  0.9051   61.1   0.372  -47.7  0.1887  -34.5  0.8381   63.6
10.400  0.9065   60.6   0.365  -48.3  0.1883  -35.0  0.8412   63.6
10.600  0.9069   60.2   0.361  -49.0  0.1885  -35.6  0.8422   63.8
10.800  0.9063   59.8   0.358  -49.7  0.1893  -36.3  0.8410   64.1
11.000  0.9058   59.4   0.356  -50.4  0.1901  -36.9  0.8398   64.4
11.200  0.9015   58.7   0.355  -51.7  0.1965  -37.0  0.8283   63.9
11.400  0.8973   58.0   0.354  -53.0  0.2030  -37.1  0.8169   63.4
11.600  0.8926   57.4   0.354  -54.4  0.2087  -38.3  0.8113   62.5
11.800  0.8872   56.7   0.357  -55.7  0.2139  -40.6  0.8118   61.2
12.000  0.8819   56.0   0.360  -57.0  0.2195  -42.8  0.8127   60.0
!
!  f       NFmin   Gammaopt  rn/50
! GHz       dB    MAG  ANG    -
 0.450      2.68  0.71 -172   0.07
 0.900      2.73  0.73 -165   0.10
 1.900      2.84  0.73 -148   0.24
 2.400      2.91  0.73 -138   0.37
!
! (c) 2015  Infineon Technologies AG, Munich
